
**** 04/24/22 11:35:17 ****** PSpice Lite (October 2012) ****** ID# 10813 ****

 ** Profile: "SCHEMATIC1-Hartely oscillator"  [ C:\USERS\EL GOHARY\ORCAD\Hartely oscillator-PSpiceFiles\SCHEMATIC1\Hartely oscillator


 ****     CIRCUIT DESCRIPTION


******************************************************************************




** Creating circuit file "Hartely oscillator.cir" 
** WARNING: THIS AUTOMATICALLY GENERATED FILE MAY BE OVERWRITTEN BY SUBSEQUENT SIMULATIONS

*Libraries: 
* Profile Libraries :
* Local Libraries :
* From [PSPICE NETLIST] section of C:\Users\EL GOHARY\AppData\Roaming\SPB_16.6\cdssetup\OrCAD_PSpice/16.6.0/PSpice.ini file:
.lib "nomd.lib" 

*Analysis directives: 
.TRAN  0 25m 0 1u 
.OPTIONS ADVCONV
.PROBE64 V(alias(*)) I(alias(*)) W(alias(*)) D(alias(*)) NOISE(alias(*)) 
.INC "..\SCHEMATIC1.net" 



**** INCLUDING SCHEMATIC1.net ****
* source HARTELY OSCILLATOR
C_C3         N01243 N01221  1u  TC=0,0 
L_L1         0 N01221  1m  
R_R4         0 N01189  2.7k TC=0,0 
R_R2         0 N01193  4.7k TC=0,0 
C_C2         0 N01189  10u  TC=0,0 
L_L2         N01243 0  1m  
V_V1         N01143 0 5v
C_C4         N01221 N01185  22u  TC=0,0 
C_C1         N01243 N01193  22u  TC=0,0 
Q_Q1         N01185 N01193 N01189 Q2N2222
R_R1         N01193 N01143  10k TC=0,0 
R_R3         N01185 N01143  3.6k TC=0,0 

**** RESUMING "Hartely oscillator.cir" ****
.END

**** 04/24/22 11:35:17 ****** PSpice Lite (October 2012) ****** ID# 10813 ****

 ** Profile: "SCHEMATIC1-Hartely oscillator"  [ C:\USERS\EL GOHARY\ORCAD\Hartely oscillator-PSpiceFiles\SCHEMATIC1\Hartely oscillator


 ****     BJT MODEL PARAMETERS


******************************************************************************




               Q2N2222         
               NPN             
       LEVEL    1            
          IS   14.340000E-15 
          BF  255.9          
          NF    1            
         VAF   74.03         
         IKF     .2847       
         ISE   14.340000E-15 
          NE    1.307        
          BR    6.092        
          NR    1            
         ISS    0            
          RB   10            
          RE    0            
          RC    1            
         CJE   22.010000E-12 
         VJE     .75         
         MJE     .377        
         CJC    7.306000E-12 
         VJC     .75         
         MJC     .3416       
        XCJC    1            
         CJS    0            
         VJS     .75         
          TF  411.100000E-12 
         XTF    3            
         VTF    1.7          
         ITF     .6          
          TR   46.910000E-09 
         XTB    1.5          
          KF    0            
          AF    1            
          CN    2.42         
           D     .87         


**** 04/24/22 11:35:17 ****** PSpice Lite (October 2012) ****** ID# 10813 ****

 ** Profile: "SCHEMATIC1-Hartely oscillator"  [ C:\USERS\EL GOHARY\ORCAD\Hartely oscillator-PSpiceFiles\SCHEMATIC1\Hartely oscillator


 ****     INITIAL TRANSIENT SOLUTION       TEMPERATURE =   27.000 DEG C


******************************************************************************



 NODE   VOLTAGE     NODE   VOLTAGE     NODE   VOLTAGE     NODE   VOLTAGE


(N01143)    5.0000 (N01185)    3.7138 (N01189)     .9718 (N01193)    1.5903     

(N01221)    0.0000 (N01243)    0.0000 




    VOLTAGE SOURCE CURRENTS
    NAME         CURRENT

    V_V1        -6.983E-04

    TOTAL POWER DISSIPATION   3.49E-03  WATTS



          JOB CONCLUDED

**** 04/24/22 11:35:17 ****** PSpice Lite (October 2012) ****** ID# 10813 ****

 ** Profile: "SCHEMATIC1-Hartely oscillator"  [ C:\USERS\EL GOHARY\ORCAD\Hartely oscillator-PSpiceFiles\SCHEMATIC1\Hartely oscillator


 ****     JOB STATISTICS SUMMARY


******************************************************************************



  Total job time (using Solver 1)   =         .55
