
**** 04/22/22 18:41:53 ****** PSpice Lite (October 2012) ****** ID# 10813 ****

 ** Profile: "SCHEMATIC1-cascaded ce1"  [ C:\Users\EL GOHARY\orcad\cascaded ce amlifier\cascaded ce amplifier -pspicefiles\schematic1


 ****     CIRCUIT DESCRIPTION


******************************************************************************




** Creating circuit file "cascaded ce1.cir" 
** WARNING: THIS AUTOMATICALLY GENERATED FILE MAY BE OVERWRITTEN BY SUBSEQUENT SIMULATIONS

*Libraries: 
* Profile Libraries :
* Local Libraries :
* From [PSPICE NETLIST] section of C:\Users\EL GOHARY\AppData\Roaming\SPB_16.6\cdssetup\OrCAD_PSpice/16.6.0/PSpice.ini file:
.lib "nomd.lib" 

*Analysis directives: 
.TRAN  0 10m 0 1u 
.OPTIONS ADVCONV
.PROBE64 V(alias(*)) I(alias(*)) W(alias(*)) D(alias(*)) NOISE(alias(*)) 
.INC "..\SCHEMATIC1.net" 



**** INCLUDING SCHEMATIC1.net ****
* source CASCADED CE AMPLIFIER 
R_R2         0 N01296  10k TC=0,0 
C_C3         N02120 N01292  10u  TC=0,0 
R_R6         0 N01388  470 TC=0,0 
R_R1         N01296 N01250  47k TC=0,0 
V_V1         N01250 0 12v
C_C2         0 N01388  100u  TC=0,0 
R_R3         N01292 N01250  4.7k TC=0,0 
V_V2         N01314 0  
+SIN 0 10mv 1k 0 0 0
R_R4         N01388 N01350  470 TC=0,0 
C_C1         N01314 N01296  10u  TC=0,0 
Q_Q1         N01292 N01296 N01350 Q2N2222
R_R9         N02116 N01250  4.7k TC=0,0 
R_R8         0 N02120  10k TC=0,0 
C_C6         N02158 N02116  10u  TC=0,0 
Q_Q2         N02116 N02120 N02174 Q2N2222
R_R11         0 N02212  470 TC=0,0 
R_R10         N02212 N02174  470 TC=0,0 
R_R5         0 N02158  47k TC=0,0 
C_C5         0 N02212  100u  TC=0,0 
R_R7         N02120 N01250  47k TC=0,0 

**** RESUMING "cascaded ce1.cir" ****
.END

**** 04/22/22 18:41:53 ****** PSpice Lite (October 2012) ****** ID# 10813 ****

 ** Profile: "SCHEMATIC1-cascaded ce1"  [ C:\Users\EL GOHARY\orcad\cascaded ce amlifier\cascaded ce amplifier -pspicefiles\schematic1


 ****     BJT MODEL PARAMETERS


******************************************************************************




               Q2N2222         
               NPN             
       LEVEL    1            
          IS   14.340000E-15 
          BF  255.9          
          NF    1            
         VAF   74.03         
         IKF     .2847       
         ISE   14.340000E-15 
          NE    1.307        
          BR    6.092        
          NR    1            
         ISS    0            
          RB   10            
          RE    0            
          RC    1            
         CJE   22.010000E-12 
         VJE     .75         
         MJE     .377        
         CJC    7.306000E-12 
         VJC     .75         
         MJC     .3416       
        XCJC    1            
         CJS    0            
         VJS     .75         
          TF  411.100000E-12 
         XTF    3            
         VTF    1.7          
         ITF     .6          
          TR   46.910000E-09 
         XTB    1.5          
          KF    0            
          AF    1            
          CN    2.42         
           D     .87         


**** 04/22/22 18:41:53 ****** PSpice Lite (October 2012) ****** ID# 10813 ****

 ** Profile: "SCHEMATIC1-cascaded ce1"  [ C:\Users\EL GOHARY\orcad\cascaded ce amlifier\cascaded ce amplifier -pspicefiles\schematic1


 ****     INITIAL TRANSIENT SOLUTION       TEMPERATURE =   27.000 DEG C


******************************************************************************



 NODE   VOLTAGE     NODE   VOLTAGE     NODE   VOLTAGE     NODE   VOLTAGE


(N01250)   12.0000 (N01292)    5.1670 (N01296)    2.0298 (N01314)    0.0000     

(N01350)    1.3752 (N01388)     .6876 (N02116)    5.1670 (N02120)    2.0298     

(N02158)    0.0000 (N02174)    1.3752 (N02212)     .6876 




    VOLTAGE SOURCE CURRENTS
    NAME         CURRENT

    V_V1        -3.332E-03
    V_V2         0.000E+00

    TOTAL POWER DISSIPATION   4.00E-02  WATTS



          JOB CONCLUDED

**** 04/22/22 18:41:53 ****** PSpice Lite (October 2012) ****** ID# 10813 ****

 ** Profile: "SCHEMATIC1-cascaded ce1"  [ C:\Users\EL GOHARY\orcad\cascaded ce amlifier\cascaded ce amplifier -pspicefiles\schematic1


 ****     JOB STATISTICS SUMMARY


******************************************************************************



  Total job time (using Solver 1)   =         .45
