
**** 04/22/22 18:30:03 ****** PSpice Lite (October 2012) ****** ID# 10813 ****

 ** Profile: "SCHEMATIC1-ceamplifier"  [ C:\USERS\EL GOHARY\ORCAD\CEAmplfier-PSpiceFiles\SCHEMATIC1\ceamplifier.sim ] 


 ****     CIRCUIT DESCRIPTION


******************************************************************************




** Creating circuit file "ceamplifier.cir" 
** WARNING: THIS AUTOMATICALLY GENERATED FILE MAY BE OVERWRITTEN BY SUBSEQUENT SIMULATIONS

*Libraries: 
* Profile Libraries :
* Local Libraries :
* From [PSPICE NETLIST] section of C:\Users\EL GOHARY\AppData\Roaming\SPB_16.6\cdssetup\OrCAD_PSpice/16.6.0/PSpice.ini file:
.lib "nomd.lib" 

*Analysis directives: 
.TRAN  0 10m 0 1u 
.OPTIONS ADVCONV
.PROBE64 V(alias(*)) I(alias(*)) W(alias(*)) D(alias(*)) NOISE(alias(*)) 
.INC "..\SCHEMATIC1.net" 



**** INCLUDING SCHEMATIC1.net ****
* source CEAMPLFIER
Q_Q1         N00370 N00374 N00420 Q2N2222
R_R1         N00374 N00346  47k TC=0,0 
R_R2         0 N00374  10k TC=0,0 
R_R3         N00370 N00346  4.7k TC=0,0 
R_R4         N00664 N00420  470 TC=0,0 
C_C1         N00392 N00374  10u  TC=0,0 
C_C2         0 N00664  100u  TC=0,0 
C_C3         N00409 N00370  10u  TC=0,0 
V_V1         N00346 0 12v
V_V2         N00392 0  
+SIN 0 10mv 1k 0 0 0
R_R5         0 N00409  47k TC=0,0 
R_R6         0 N00664  470 TC=0,0 

**** RESUMING ceamplifier.cir ****
.END

**** 04/22/22 18:30:03 ****** PSpice Lite (October 2012) ****** ID# 10813 ****

 ** Profile: "SCHEMATIC1-ceamplifier"  [ C:\USERS\EL GOHARY\ORCAD\CEAmplfier-PSpiceFiles\SCHEMATIC1\ceamplifier.sim ] 


 ****     BJT MODEL PARAMETERS


******************************************************************************




               Q2N2222         
               NPN             
       LEVEL    1            
          IS   14.340000E-15 
          BF  255.9          
          NF    1            
         VAF   74.03         
         IKF     .2847       
         ISE   14.340000E-15 
          NE    1.307        
          BR    6.092        
          NR    1            
         ISS    0            
          RB   10            
          RE    0            
          RC    1            
         CJE   22.010000E-12 
         VJE     .75         
         MJE     .377        
         CJC    7.306000E-12 
         VJC     .75         
         MJC     .3416       
        XCJC    1            
         CJS    0            
         VJS     .75         
          TF  411.100000E-12 
         XTF    3            
         VTF    1.7          
         ITF     .6          
          TR   46.910000E-09 
         XTB    1.5          
          KF    0            
          AF    1            
          CN    2.42         
           D     .87         


**** 04/22/22 18:30:03 ****** PSpice Lite (October 2012) ****** ID# 10813 ****

 ** Profile: "SCHEMATIC1-ceamplifier"  [ C:\USERS\EL GOHARY\ORCAD\CEAmplfier-PSpiceFiles\SCHEMATIC1\ceamplifier.sim ] 


 ****     INITIAL TRANSIENT SOLUTION       TEMPERATURE =   27.000 DEG C


******************************************************************************



 NODE   VOLTAGE     NODE   VOLTAGE     NODE   VOLTAGE     NODE   VOLTAGE


(N00346)   12.0000 (N00370)    5.1670 (N00374)    2.0298 (N00392)    0.0000     

(N00409)    0.0000 (N00420)    1.3752 (N00664)     .6876 




    VOLTAGE SOURCE CURRENTS
    NAME         CURRENT

    V_V1        -1.666E-03
    V_V2         0.000E+00

    TOTAL POWER DISSIPATION   2.00E-02  WATTS



          JOB CONCLUDED

**** 04/22/22 18:30:03 ****** PSpice Lite (October 2012) ****** ID# 10813 ****

 ** Profile: "SCHEMATIC1-ceamplifier"  [ C:\USERS\EL GOHARY\ORCAD\CEAmplfier-PSpiceFiles\SCHEMATIC1\ceamplifier.sim ] 


 ****     JOB STATISTICS SUMMARY


******************************************************************************



  Total job time (using Solver 1)   =         .44
